# HZ S RI R 50
1000000 -0.006239738 -0.004499567 0.886072576 -0.022062504 0 0 0 0
1098712 -0.006244595 -0.004999282 0.886050283 -0.023002427 0 0 0 0
1197424 -0.006195235 -0.005460815 0.886076092 -0.024193238 0 0 0 0
1296136 -0.006168154 -0.00591839 0.885978519 -0.025339201 0 0 0 0
1394848 -0.006122218 -0.006390656 0.885840833 -0.026177337 0 0 0 0
1493560 -0.006124229 -0.006856097 0.88588196 -0.027094431 0 0 0 0
1592272 -0.00611257 -0.007332854 0.885956883 -0.028081405 0 0 0 0
1690984 -0.006117156 -0.007821605 0.886176526 -0.029017867 0 0 0 0
1789696 -0.006158983 -0.008260988 0.886310338 -0.030155483 0 0 0 0
1888408 -0.006113881 -0.008702503 0.886128425 -0.031107041 0 0 0 0
1987120 -0.006100165 -0.009214218 0.886219084 -0.031814105 0 0 0 0
2085832 -0.006130021 -0.009692964 0.886317551 -0.032720182 0 0 0 0
2184544 -0.006120557 -0.010182412 0.886397123 -0.033631447 0 0 0 0
2283256 -0.006169216 -0.010621173 0.886490583 -0.034562632 0 0 0 0
2381968 -0.006141362 -0.011127087 0.886651396 -0.035629361 0 0 0 0
2480680 -0.006182208 -0.0115782 0.886694073 -0.036673605 0 0 0 0
2579392 -0.006187087 -0.012058017 0.886658906 -0.037673581 0 0 0 0
2678104 -0.006187064 -0.012546134 0.886601865 -0.038421355 0 0 0 0
2776816 -0.006196815 -0.013041543 0.886591017 -0.039292179 0 0 0 0
2875528 -0.006261569 -0.01354888 0.886945068 -0.040248941 0 0 0 0
2974240 -0.00629046 -0.01400117 0.886997938 -0.041357252 0 0 0 0
3072952 -0.00634554 -0.014474403 0.886977136 -0.042340975 0 0 0 0
3171664 -0.006380203 -0.014966273 0.887138783 -0.043111979 0 0 0 0
3270376 -0.006399028 -0.015462583 0.887242436 -0.04400321 0 0 0 0
3369088 -0.006434 -0.015961809 0.887320399 -0.044960029 0 0 0 0
3467800 -0.006464685 -0.016431678 0.887149155 -0.045833382 0 0 0 0
3566512 -0.006517414 -0.016967242 0.887286365 -0.046623479 0 0 0 0
3665224 -0.006588702 -0.017430886 0.887479901 -0.047525987 0 0 0 0
3763936 -0.006651288 -0.017890309 0.887484014 -0.048465862 0 0 0 0
3862648 -0.006681956 -0.018367771 0.887675225 -0.049481667 0 0 0 0
3961360 -0.00675257 -0.018844304 0.887584328 -0.050528019 0 0 0 0
4060072 -0.006827062 -0.019377389 0.887562096 -0.051261845 0 0 0 0
4158784 -0.006855238 -0.01988339 0.887565016 -0.051958836 0 0 0 0
4257496 -0.006932923 -0.020354984 0.887625336 -0.052809223 0 0 0 0
4356208 -0.007015784 -0.020821342 0.88790977 -0.053705815 0 0 0 0
4454920 -0.007081619 -0.02129654 0.888023793 -0.05475052 0 0 0 0
4553632 -0.007168516 -0.021769799 0.887978434 -0.055735401 0 0 0 0
4652344 -0.007208235 -0.022241704 0.887925386 -0.056522805 0 0 0 0
4751056 -0.007279413 -0.022791715 0.887965321 -0.057276159 0 0 0 0
4849768 -0.007375801 -0.023252535 0.888101458 -0.058074072 0 0 0 0
4948480 -0.00749319 -0.023762805 0.888406336 -0.058965146 0 0 0 0
5047192 -0.007572283 -0.02424493 0.888542354 -0.059857849 0 0 0 0
5145904 -0.007647575 -0.024718862 0.888637959 -0.06065113 0 0 0 0
5244616 -0.007734584 -0.025194957 0.888782382 -0.061617478 0 0 0 0
5343328 -0.007861318 -0.02566269 0.888792693 -0.062543764 0 0 0 0
5442040 -0.007929312 -0.026137076 0.888847947 -0.063475996 0 0 0 0
5540752 -0.007997456 -0.026642026 0.888790488 -0.064250506 0 0 0 0
5639464 -0.008123222 -0.027096008 0.889166653 -0.065266668 0 0 0 0
5738176 -0.008268003 -0.027610247 0.889275848 -0.066115051 0 0 0 0
5836888 -0.00832618 -0.028083739 0.889186859 -0.067050471 0 0 0 0
5935600 -0.008401918 -0.028593216 0.889273822 -0.0676997 0 0 0 0
6034312 -0.008551293 -0.029093857 0.889448583 -0.068617977 0 0 0 0
6133024 -0.008680074 -0.029573077 0.889448881 -0.069889843 0 0 0 0
6231736 -0.008766953 -0.03005146 0.889501392 -0.070699959 0 0 0 0
6330448 -0.008881747 -0.030536139 0.889568328 -0.071533486 0 0 0 0
6429160 -0.00899585 -0.031040921 0.88972336 -0.072350725 0 0 0 0
6527872 -0.009143936 -0.031503386 0.89011228 -0.073364697 0 0 0 0
6626584 -0.009264589 -0.031990371 0.890126645 -0.074474595 0 0 0 0
6725296 -0.009382155 -0.032476961 0.890203595 -0.075481913 0 0 0 0
6824008 -0.009513638 -0.032908029 0.890231966 -0.076414823 0 0 0 0
6922720 -0.009634382 -0.033417783 0.890259444 -0.077368162 0 0 0 0
7021432 -0.009764925 -0.033907275 0.890256702 -0.078233703 0 0 0 0
7120144 -0.00988503 -0.034398011 0.890369415 -0.079150043 0 0 0 0
7218856 -0.01003234 -0.034862112 0.890430748 -0.079953789 0 0 0 0
7317568 -0.010193481 -0.035414408 0.89069575 -0.08076214 0 0 0 0
7416280 -0.01033711 -0.035848375 0.890929877 -0.081734761 0 0 0 0
7514992 -0.01049558 -0.036314845 0.890960514 -0.082728877 0 0 0 0
7613704 -0.010625775 -0.036817084 0.890967071 -0.083588369 0 0 0 0
7712416 -0.010768307 -0.037248503 0.891121506 -0.084517858 0 0 0 0
7811128 -0.010919216 -0.03776047 0.891380608 -0.085609175 0 0 0 0
7909840 -0.01106417 -0.038237717 0.891431272 -0.086673952 0 0 0 0
8008552 -0.011231972 -0.038720238 0.891408264 -0.087688341 0 0 0 0
8107264 -0.011384713 -0.03917393 0.891411721 -0.088577851 0 0 0 0
8205976 -0.011531298 -0.039645295 0.891422867 -0.089495614 0 0 0 0
8304688 -0.011695522 -0.040169145 0.891564667 -0.090250097 0 0 0 0
8403400 -0.011911287 -0.04066823 0.891906082 -0.091128088 0 0 0 0
8502112 -0.012083609 -0.041087888 0.892036974 -0.09214583 0 0 0 0
8600824 -0.012219928 -0.041560288 0.892197191 -0.093185104 0 0 0 0
8699536 -0.012411952 -0.042041011 0.892279565 -0.094129294 0 0 0 0
8798248 -0.012583361 -0.042534548 0.892350971 -0.094962306 0 0 0 0
8896960 -0.012753919 -0.042986184 0.892469465 -0.095981024 0 0 0 0
8995672 -0.012911633 -0.043479278 0.892483115 -0.097063817 0 0 0 0
9094384 -0.013111976 -0.043961636 0.892276048 -0.09789104 0 0 0 0
9193096 -0.013256761 -0.044435147 0.892112553 -0.098836302 0 0 0 0
9291808 -0.01348483 -0.044877387 0.891921699 -0.099909424 0 0 0 0
9390520 -0.01367669 -0.045355025 0.891904592 -0.101032212 0 0 0 0
9489232 -0.013858607 -0.045806165 0.89166069 -0.102242209 0 0 0 0
9587944 -0.014065713 -0.046278741 0.891337513 -0.103371337 0 0 0 0
9686656 -0.014252326 -0.046726383 0.891025364 -0.104445464 0 0 0 0
9785368 -0.01440926 -0.047233533 0.890706002 -0.105386115 0 0 0 0
9884080 -0.014645859 -0.047737468 0.890568614 -0.106303036 0 0 0 0
9982792 -0.01485196 -0.048177834 0.890451014 -0.107678383 0 0 0 0
10081504 -0.015057407 -0.048632696 0.890364348 -0.108688682 0 0 0 0
10180216 -0.015262491 -0.049124509 0.890199899 -0.109657332 0 0 0 0
10278928 -0.015486821 -0.049543984 0.889970004 -0.110714048 0 0 0 0
10377640 -0.015666121 -0.050043035 0.889546036 -0.111751206 0 0 0 0
10476352 -0.015885975 -0.05049961 0.889270067 -0.112628661 0 0 0 0
10575064 -0.016119157 -0.051006469 0.889234542 -0.113608822 0 0 0 0
10673776 -0.016346676 -0.051417876 0.889117479 -0.114743277 0 0 0 0
10772488 -0.016562793 -0.051872514 0.888938963 -0.1158536 0 0 0 0
10871200 -0.016781242 -0.052357301 0.888642668 -0.116991639 0 0 0 0
10969912 -0.017023021 -0.052803166 0.888397097 -0.118095688 0 0 0 0
11068624 -0.017251981 -0.053262982 0.888021826 -0.119192957 0 0 0 0
11167336 -0.017470233 -0.053724676 0.887799799 -0.120119571 0 0 0 0
11266048 -0.017698787 -0.054220236 0.887615919 -0.120986677 0 0 0 0
11364760 -0.01796039 -0.054651867 0.887470543 -0.121986858 0 0 0 0
11463472 -0.018175849 -0.055106561 0.887227356 -0.123000249 0 0 0 0
11562184 -0.018431268 -0.05559384 0.887037277 -0.124051794 0 0 0 0
11660896 -0.018657514 -0.056046329 0.887004733 -0.12514925 0 0 0 0
11759608 -0.018917674 -0.056466884 0.886805653 -0.126232624 0 0 0 0
11858320 -0.019162405 -0.05694364 0.886629819 -0.127331942 0 0 0 0
11957032 -0.019370662 -0.057345889 0.886369943 -0.128319025 0 0 0 0
12055744 -0.019657915 -0.057792928 0.886102735 -0.129440218 0 0 0 0
12154456 -0.019868016 -0.05822454 0.885971069 -0.130337566 0 0 0 0
12253168 -0.020140722 -0.058713171 0.885740637 -0.131431996 0 0 0 0
12351880 -0.02040141 -0.059162814 0.885473549 -0.132496714 0 0 0 0
12450592 -0.020685479 -0.059603825 0.885227501 -0.133560672 0 0 0 0
12549304 -0.02091353 -0.060048758 0.884993672 -0.134606689 0 0 0 0
12648016 -0.02116106 -0.060491044 0.884670972 -0.135628327 0 0 0 0
12746728 -0.021411854 -0.060942292 0.88437426 -0.136570349 0 0 0 0
12845440 -0.021674394 -0.061397533 0.884124875 -0.137491315 0 0 0 0
12944152 -0.021925663 -0.061829555 0.883882105 -0.138520792 0 0 0 0
13042864 -0.022206623 -0.062276862 0.883699238 -0.139504566 0 0 0 0
13141576 -0.022513505 -0.062750533 0.883447825 -0.140539988 0 0 0 0
13240288 -0.022754287 -0.063176915 0.883312821 -0.141441002 0 0 0 0
13339000 -0.023061977 -0.063626959 0.883330166 -0.142449036 0 0 0 0
13437712 -0.023331051 -0.064068563 0.883072614 -0.143422603 0 0 0 0
13536424 -0.023626608 -0.06449902 0.882931649 -0.144536867 0 0 0 0
13635136 -0.023898493 -0.064908273 0.882753133 -0.145605146 0 0 0 0
13733848 -0.024172535 -0.065331518 0.882477462 -0.146541967 0 0 0 0
13832560 -0.024460241 -0.065769664 0.882331609 -0.147573739 0 0 0 0
13931272 -0.024753358 -0.06619849 0.881977856 -0.148513704 0 0 0 0
14029984 -0.025025816 -0.066611491 0.881859362 -0.149561494 0 0 0 0
14128696 -0.025351954 -0.067050531 0.881586313 -0.150543764 0 0 0 0
14227408 -0.025614038 -0.067471303 0.881496071 -0.151593953 0 0 0 0
14326120 -0.025934245 -0.067897595 0.881210148 -0.152747929 0 0 0 0
14424832 -0.02623016 -0.068318247 0.880917131 -0.153805583 0 0 0 0
14523544 -0.026489164 -0.068769603 0.880568385 -0.154800102 0 0 0 0
14622256 -0.026793492 -0.069162808 0.880304157 -0.155683055 0 0 0 0
14720968 -0.027115896 -0.069621056 0.880040943 -0.156632736 0 0 0 0
14819680 -0.027423644 -0.070021457 0.879869103 -0.157557606 0 0 0 0
14918392 -0.027714122 -0.070439025 0.879605233 -0.158613532 0 0 0 0
15017104 -0.028021931 -0.07088261 0.879567027 -0.15951547 0 0 0 0
15115816 -0.028348537 -0.071326918 0.879508256 -0.160595685 0 0 0 0
15214528 -0.028688926 -0.071709588 0.879242479 -0.16176097 0 0 0 0
15313240 -0.028967851 -0.072125174 0.878838002 -0.162696182 0 0 0 0
15411952 -0.029301771 -0.072553448 0.878529191 -0.163619652 0 0 0 0
15510664 -0.029650311 -0.072963751 0.878279805 -0.164792701 0 0 0 0
15609376 -0.02992122 -0.07341022 0.878167152 -0.165601029 0 0 0 0
15708088 -0.030233928 -0.073829278 0.877994418 -0.166569173 0 0 0 0
15806800 -0.030591219 -0.074227973 0.877903997 -0.167577475 0 0 0 0
15905512 -0.03094533 -0.074628859 0.877626955 -0.16859281 0 0 0 0
16004224 -0.031262714 -0.075067818 0.877593517 -0.169746622 0 0 0 0
16102936 -0.031600248 -0.075446136 0.87731105 -0.170889407 0 0 0 0
16201648 -0.031924795 -0.075849667 0.876964688 -0.171953007 0 0 0 0
16300360 -0.03226865 -0.076245382 0.87659353 -0.17285782 0 0 0 0
16399072 -0.032563555 -0.076683267 0.876352608 -0.173869326 0 0 0 0
16497784 -0.032912857 -0.077076293 0.876224279 -0.174733594 0 0 0 0
16596496 -0.03324962 -0.077475324 0.876053094 -0.175727382 0 0 0 0
16695208 -0.033596076 -0.077845379 0.87580347 -0.176751613 0 0 0 0
16793920 -0.033958408 -0.078228481 0.87576425 -0.177825391 0 0 0 0
16892632 -0.034272566 -0.078637309 0.875552535 -0.178852021 0 0 0 0
16991344 -0.034648559 -0.079026311 0.87535578 -0.179899871 0 0 0 0
17090056 -0.034990437 -0.079387225 0.874970614 -0.180798485 0 0 0 0
17188768 -0.035328172 -0.079812958 0.874790191 -0.181775391 0 0 0 0
17287480 -0.035688299 -0.080226361 0.874650776 -0.182851746 0 0 0 0
17386192 -0.036071084 -0.080564804 0.874425947 -0.183796823 0 0 0 0
17484904 -0.036408483 -0.080975241 0.874244272 -0.18481788 0 0 0 0
17583616 -0.036751449 -0.081347316 0.874035477 -0.185866862 0 0 0 0
17682328 -0.037119373 -0.081726901 0.873763203 -0.186995118 0 0 0 0
17781040 -0.037475228 -0.082140922 0.87343949 -0.188115417 0 0 0 0
17879752 -0.037836074 -0.082490622 0.873238265 -0.189138486 0 0 0 0
17978464 -0.038220945 -0.082903474 0.872954905 -0.190076082 0 0 0 0
18077176 -0.038595091 -0.08327496 0.872592508 -0.19085589 0 0 0 0
18175888 -0.038932546 -0.083689242 0.872213482 -0.191816955 0 0 0 0
18274600 -0.039313945 -0.084043018 0.871884584 -0.192844405 0 0 0 0
18373312 -0.039679549 -0.08443015 0.87155199 -0.193726822 0 0 0 0
18472024 -0.040096424 -0.08483757 0.871239185 -0.194738686 0 0 0 0
18570736 -0.040455326 -0.085185177 0.870887637 -0.195748224 0 0 0 0
18669448 -0.040846358 -0.085576564 0.870556294 -0.196852982 0 0 0 0
18768160 -0.041220862 -0.085941612 0.870258808 -0.197605699 0 0 0 0
18866872 -0.041626386 -0.086318619 0.86993581 -0.198545128 0 0 0 0
18965584 -0.04201404 -0.08670479 0.869841158 -0.199934989 0 0 0 0
19064296 -0.042394474 -0.087093204 0.869507253 -0.200787365 0 0 0 0
19163008 -0.042798567 -0.087464742 0.869099318 -0.201845437 0 0 0 0
19261720 -0.043150048 -0.087818831 0.868589937 -0.202732816 0 0 0 0
19360432 -0.043523363 -0.088181614 0.868304073 -0.203507319 0 0 0 0
19459144 -0.043922364 -0.088562443 0.868008375 -0.204483106 0 0 0 0
19557856 -0.044323936 -0.088895581 0.867534399 -0.205526307 0 0 0 0
19656568 -0.044726595 -0.08927451 0.867152512 -0.206620231 0 0 0 0
19755280 -0.045123182 -0.089655034 0.866842985 -0.207517191 0 0 0 0
19853992 -0.045514315 -0.089988738 0.866462111 -0.208607882 0 0 0 0
19952704 -0.045929763 -0.090377606 0.866183221 -0.209458827 0 0 0 0
20051416 -0.046312805 -0.090735882 0.865944206 -0.210403397 0 0 0 0
20150128 -0.046705842 -0.091052331 0.865450859 -0.21153061 0 0 0 0
20248840 -0.047136258 -0.091414012 0.865215539 -0.212427586 0 0 0 0
20347552 -0.04749941 -0.091761775 0.865007042 -0.213429406 0 0 0 0
20446264 -0.04796461 -0.092114925 0.86478424 -0.214438125 0 0 0 0
20544976 -0.048378229 -0.092455007 0.864439666 -0.215578958 0 0 0 0
20643688 -0.048807822 -0.092781253 0.864069402 -0.216681897 0 0 0 0
20742400 -0.049184497 -0.093137532 0.86358875 -0.217525497 0 0 0 0
20841112 -0.049599509 -0.093448877 0.863126575 -0.218535318 0 0 0 0
20939824 -0.050010364 -0.093787692 0.862869083 -0.219587624 0 0 0 0
21038536 -0.050425779 -0.094099596 0.862697958 -0.220619007 0 0 0 0
21137248 -0.050870075 -0.094441093 0.86211276 -0.221689105 0 0 0 0
21235960 -0.051272172 -0.094782151 0.861944139 -0.222571089 0 0 0 0
21334672 -0.051679745 -0.095083571 0.861678302 -0.223547443 0 0 0 0
21433384 -0.052143208 -0.095431074 0.861214935 -0.224665954 0 0 0 0
21532096 -0.052564021 -0.095738358 0.860841214 -0.225553482 0 0 0 0
21630808 -0.05293766 -0.096061378 0.860697865 -0.226451784 0 0 0 0
21729520 -0.053411081 -0.096409924 0.860248923 -0.22759971 0 0 0 0
21828232 -0.053865492 -0.09669736 0.859897613 -0.228479325 0 0 0 0
21926944 -0.054276507 -0.097013227 0.859510183 -0.22935976 0 0 0 0
22025656 -0.054661929 -0.097332991 0.859303891 -0.230285212 0 0 0 0
22124368 -0.055150654 -0.097657144 0.858798146 -0.231135174 0 0 0 0
22223080 -0.055540144 -0.097985893 0.858682394 -0.232269138 0 0 0 0
22321792 -0.056016501 -0.098337218 0.858313441 -0.233425423 0 0 0 0
22420504 -0.056485049 -0.098606713 0.857860505 -0.234221264 0 0 0 0
22519216 -0.056901007 -0.098931625 0.857558786 -0.235152855 0 0 0 0
22617928 -0.057344656 -0.099233485 0.857278943 -0.236208721 0 0 0 0
22716640 -0.057799383 -0.099530339 0.856771528 -0.237108051 0 0 0 0
22815352 -0.058196853 -0.099865384 0.856631278 -0.238007053 0 0 0 0
22914064 -0.058678772 -0.100176125 0.856300175 -0.239121571 0 0 0 0
23012776 -0.059171967 -0.100482113 0.855810999 -0.240025192 0 0 0 0
23111488 -0.059590078 -0.100808687 0.855533242 -0.241082042 0 0 0 0
23210200 -0.060033235 -0.101072281 0.855095803 -0.241922125 0 0 0 0
23308912 -0.06047552 -0.10142295 0.854990839 -0.242852851 0 0 0 0
23407624 -0.060942597 -0.101737111 0.85458517 -0.243953958 0 0 0 0
23506336 -0.061430022 -0.101977832 0.854038119 -0.244732856 0 0 0 0
23605048 -0.061867583 -0.102325312 0.853671789 -0.245857208 0 0 0 0
23703760 -0.062302034 -0.102638557 0.853557646 -0.246874958 0 0 0 0
23802472 -0.062795005 -0.102894969 0.853052258 -0.247720852 0 0 0 0
23901184 -0.06324426 -0.103202298 0.852905154 -0.248569607 0 0 0 0
23999896 -0.063737861 -0.1035038 0.85229665 -0.24972172 0 0 0 0
24098608 -0.064156293 -0.103810004 0.852265119 -0.250580012 0 0 0 0
24197320 -0.06468641 -0.104080572 0.851656198 -0.251562476 0 0 0 0
24296032 -0.065112113 -0.104389242 0.851620376 -0.252521604 0 0 0 0
24394744 -0.065621815 -0.104646213 0.851023256 -0.25351113 0 0 0 0
24493456 -0.066073954 -0.104956217 0.850731134 -0.254528105 0 0 0 0
24592168 -0.066559322 -0.105226211 0.85031414 -0.255263507 0 0 0 0
24690880 -0.067018724 -0.105525054 0.850120782 -0.256283938 0 0 0 0
24789592 -0.067479006 -0.105820201 0.849777758 -0.257316291 0 0 0 0
24888304 -0.067978285 -0.106098063 0.849389612 -0.258053243 0 0 0 0
24987016 -0.068456888 -0.10637319 0.848747491 -0.25917524 0 0 0 0
25085728 -0.068963006 -0.106656573 0.84861958 -0.260381042 0 0 0 0
25184440 -0.069441951 -0.106934972 0.84840548 -0.261122107 0 0 0 0
25283152 -0.069940298 -0.107205376 0.847812712 -0.262159764 0 0 0 0
25381864 -0.070423871 -0.107478082 0.847611606 -0.263326406 0 0 0 0
25480576 -0.070914797 -0.107788115 0.84734106 -0.264135956 0 0 0 0
25579288 -0.071389488 -0.10802038 0.846848785 -0.264918267 0 0 0 0
25678000 -0.071892611 -0.10827893 0.846328377 -0.266047477 0 0 0 0
25776712 -0.072402834 -0.108593612 0.846099257 -0.267245709 0 0 0 0
25875424 -0.072895981 -0.108818553 0.84586656 -0.26818186 0 0 0 0
25974136 -0.073349259 -0.109051227 0.845497488 -0.268941402 0 0 0 0
26072848 -0.073889687 -0.109334163 0.84492731 -0.269959628 0 0 0 0
26171560 -0.07439351 -0.109611734 0.84474194 -0.271195471 0 0 0 0
26270272 -0.074878364 -0.109859324 0.844443082 -0.272187113 0 0 0 0
26368984 -0.075350567 -0.110123679 0.844207346 -0.272999256 0 0 0 0
26467696 -0.07587023 -0.110362976 0.843842864 -0.273880749 0 0 0 0
26566408 -0.076376721 -0.110603168 0.843325436 -0.274816453 0 0 0 0
26665120 -0.076871514 -0.110828362 0.842920482 -0.275802791 0 0 0 0
26763832 -0.077359661 -0.111059933 0.842398047 -0.277015954 0 0 0 0
26862544 -0.077900998 -0.111308448 0.842160701 -0.278193593 0 0 0 0
26961256 -0.07839702 -0.111541152 0.84185338 -0.2791211 0 0 0 0
27059968 -0.078896068 -0.111773535 0.8413558 -0.280045211 0 0 0 0
27158680 -0.07934615 -0.111980512 0.841238677 -0.280960053 0 0 0 0
27257392 -0.079868502 -0.112188674 0.840690016 -0.281743705 0 0 0 0
27356104 -0.080421432 -0.11247421 0.840259909 -0.282837808 0 0 0 0
27454816 -0.080906584 -0.112667694 0.839891016 -0.283764064 0 0 0 0
27553528 -0.081402979 -0.112895637 0.839412033 -0.284752398 0 0 0 0
27652240 -0.081899009 -0.113074123 0.838717281 -0.285589456 0 0 0 0
27750952 -0.082425996 -0.113313049 0.838298201 -0.286560833 0 0 0 0
27849664 -0.082945965 -0.113504692 0.837690353 -0.287447988 0 0 0 0
27948376 -0.083468452 -0.113690838 0.837181448 -0.288430213 0 0 0 0
28047088 -0.083984278 -0.113952033 0.836973547 -0.289420545 0 0 0 0
28145800 -0.084492489 -0.114128984 0.836373507 -0.290331184 0 0 0 0
28244512 -0.085009343 -0.114313766 0.835932731 -0.291214644 0 0 0 0
28343224 -0.085500515 -0.114525467 0.835514664 -0.292159736 0 0 0 0
28441936 -0.086017757 -0.114723548 0.835085988 -0.293146491 0 0 0 0
28540648 -0.086555294 -0.114922009 0.834484815 -0.294053137 0 0 0 0
28639360 -0.087070502 -0.115111127 0.834089696 -0.294957429 0 0 0 0
28738072 -0.087613448 -0.115327619 0.833473384 -0.295896887 0 0 0 0
28836784 -0.088108517 -0.115506224 0.833137691 -0.296825259 0 0 0 0
28935496 -0.08862248 -0.115707956 0.832630872 -0.297735422 0 0 0 0
29034208 -0.089155122 -0.115900337 0.832232952 -0.298622548 0 0 0 0
29132920 -0.089687332 -0.116070173 0.831761479 -0.299570739 0 0 0 0
29231632 -0.090224847 -0.116272889 0.831404507 -0.300465464 0 0 0 0
29330344 -0.090744055 -0.116420403 0.830833792 -0.301408141 0 0 0 0
29429056 -0.091310247 -0.116613417 0.830552756 -0.302282035 0 0 0 0
29527768 -0.091846935 -0.116814687 0.830159187 -0.303232908 0 0 0 0
29626480 -0.092424012 -0.116991005 0.829735517 -0.304369717 0 0 0 0
29725192 -0.092929191 -0.117165364 0.82917279 -0.305393934 0 0 0 0
