# HZ S RI R 50
1000000 -0.008741602 -0.002340677 0.70087248 -0.017917454 0 0 0 0
1098712 -0.008660377 -0.002643496 0.700859904 -0.018585048 0 0 0 0
1197424 -0.008593196 -0.002944223 0.700736165 -0.01942864 0 0 0 0
1296136 -0.008540712 -0.003263762 0.700863718 -0.020158125 0 0 0 0
1394848 -0.008492927 -0.003515654 0.700721621 -0.02086489 0 0 0 0
1493560 -0.0084767 -0.003818396 0.700835704 -0.02156555 0 0 0 0
1592272 -0.00840985 -0.004094728 0.700783491 -0.022334115 0 0 0 0
1690984 -0.008360709 -0.004439553 0.700830161 -0.02291535 0 0 0 0
1789696 -0.008361442 -0.004678069 0.700814723 -0.023681728 0 0 0 0
1888408 -0.008322883 -0.00501711 0.700915396 -0.024315342 0 0 0 0
1987120 -0.008265752 -0.005313126 0.70085442 -0.025006264 0 0 0 0
2085832 -0.008268852 -0.005622137 0.700902104 -0.025623444 0 0 0 0
2184544 -0.008254437 -0.005891321 0.70088458 -0.026379354 0 0 0 0
2283256 -0.00820277 -0.006244585 0.700806856 -0.026949748 0 0 0 0
2381968 -0.008215733 -0.006547568 0.701032519 -0.027715882 0 0 0 0
2480680 -0.008171336 -0.00683662 0.700900137 -0.028310829 0 0 0 0
2579392 -0.008198143 -0.007181359 0.701086699 -0.028986066 0 0 0 0
2678104 -0.008155108 -0.00749426 0.701051831 -0.029667554 0 0 0 0
2776816 -0.008165011 -0.00779451 0.701162636 -0.030348952 0 0 0 0
2875528 -0.008132859 -0.008068237 0.701139926 -0.031003054 0 0 0 0
2974240 -0.008165936 -0.00837328 0.701149046 -0.031758505 0 0 0 0
3072952 -0.00813408 -0.008728543 0.701086103 -0.032306969 0 0 0 0
3171664 -0.008182456 -0.009041561 0.701272904 -0.033000454 0 0 0 0
3270376 -0.008169855 -0.009312379 0.701222062 -0.033729452 0 0 0 0
3369088 -0.00814424 -0.009671958 0.701364576 -0.03426747 0 0 0 0
3467800 -0.008159345 -0.009945696 0.701347768 -0.034976445 0 0 0 0
3566512 -0.00820868 -0.010273529 0.701422333 -0.035714708 0 0 0 0
3665224 -0.00816217 -0.010590202 0.701383531 -0.036255903 0 0 0 0
3763936 -0.008234791 -0.010930038 0.701542615 -0.036889903 0 0 0 0
3862648 -0.008215578 -0.011199592 0.701511025 -0.037622936 0 0 0 0
3961360 -0.008269631 -0.01156225 0.701654136 -0.038223639 0 0 0 0
4060072 -0.008281942 -0.011845929 0.701551496 -0.038913004 0 0 0 0
4158784 -0.008301839 -0.012172203 0.701700687 -0.039476186 0 0 0 0
4257496 -0.008332377 -0.01249107 0.701701223 -0.04019102 0 0 0 0
4356208 -0.008349373 -0.012794811 0.701794803 -0.040692865 0 0 0 0
4454920 -0.008401647 -0.013121279 0.701836466 -0.0413042 0 0 0 0
4553632 -0.008412024 -0.013426567 0.701898813 -0.042074076 0 0 0 0
4652344 -0.008442198 -0.013764696 0.701962053 -0.042602218 0 0 0 0
4751056 -0.008525146 -0.014070043 0.702073037 -0.043348237 0 0 0 0
4849768 -0.008506901 -0.014378156 0.701991498 -0.043868396 0 0 0 0
4948480 -0.008563631 -0.014685902 0.702202379 -0.044554542 0 0 0 0
5047192 -0.008586085 -0.015006083 0.702106356 -0.045123916 0 0 0 0
5145904 -0.008616605 -0.015329238 0.7022475 -0.045639973 0 0 0 0
5244616 -0.008682706 -0.015633251 0.702362954 -0.046433236 0 0 0 0
5343328 -0.008675616 -0.015973351 0.702377736 -0.046922285 0 0 0 0
5442040 -0.008819985 -0.016304945 0.70258969 -0.047644622 0 0 0 0
5540752 -0.00880023 -0.016601998 0.70253545 -0.048231791 0 0 0 0
5639464 -0.008850974 -0.016924548 0.702728867 -0.048915777 0 0 0 0
5738176 -0.008911076 -0.017193699 0.702712118 -0.049581646 0 0 0 0
5836888 -0.008966115 -0.017559016 0.702897369 -0.050175063 0 0 0 0
5935600 -0.008973861 -0.017840325 0.702890455 -0.050874676 0 0 0 0
6034312 -0.009067825 -0.018194558 0.703052163 -0.051550865 0 0 0 0
6133024 -0.009104474 -0.018468106 0.703016757 -0.052252769 0 0 0 0
6231736 -0.009152273 -0.018831601 0.703171551 -0.052785009 0 0 0 0
6330448 -0.009229592 -0.019094016 0.703275918 -0.053599033 0 0 0 0
6429160 -0.009290718 -0.019457031 0.703297197 -0.054128885 0 0 0 0
6527872 -0.009379144 -0.019745683 0.703394532 -0.054925672 0 0 0 0
6626584 -0.009432864 -0.020095802 0.703512609 -0.05549781 0 0 0 0
6725296 -0.009486086 -0.020407209 0.703572571 -0.056273847 0 0 0 0
6824008 -0.009527957 -0.02068888 0.703523278 -0.056884825 0 0 0 0
6922720 -0.009599732 -0.020977197 0.703543722 -0.057630706 0 0 0 0
7021432 -0.009689516 -0.021358029 0.70377016 -0.058134287 0 0 0 0
7120144 -0.009771279 -0.021655423 0.703911066 -0.058930087 0 0 0 0
7218856 -0.00983014 -0.021963007 0.703869283 -0.059555526 0 0 0 0
7317568 -0.009923687 -0.022274428 0.704103052 -0.06027539 0 0 0 0
7416280 -0.009974244 -0.022603757 0.704051017 -0.060915783 0 0 0 0
7514992 -0.0100559 -0.02294846 0.704126954 -0.061488352 0 0 0 0
7613704 -0.010131888 -0.023237258 0.704385161 -0.062232371 0 0 0 0
7712416 -0.010226399 -0.02351891 0.704333007 -0.063013613 0 0 0 0
7811128 -0.010315086 -0.023853907 0.704495131 -0.06361293 0 0 0 0
7909840 -0.010412101 -0.024174811 0.704531669 -0.064353123 0 0 0 0
8008552 -0.010471622 -0.024488443 0.704628884 -0.064883857 0 0 0 0
8107264 -0.010581792 -0.024789897 0.704738259 -0.065681599 0 0 0 0
8205976 -0.010641199 -0.025088349 0.704707443 -0.066289111 0 0 0 0
8304688 -0.010784193 -0.025410052 0.704970419 -0.066971667 0 0 0 0
8403400 -0.010826924 -0.025730853 0.705026507 -0.067621782 0 0 0 0
8502112 -0.010947084 -0.026047103 0.705108523 -0.068356722 0 0 0 0
8600824 -0.011018408 -0.026353849 0.705065906 -0.069051407 0 0 0 0
8699536 -0.011112947 -0.026684109 0.705163955 -0.06960947 0 0 0 0
8798248 -0.011230614 -0.026991935 0.705409288 -0.070259623 0 0 0 0
8896960 -0.01130158 -0.027281833 0.705421209 -0.071063451 0 0 0 0
8995672 -0.011430251 -0.027643848 0.70556122 -0.071704998 0 0 0 0
9094384 -0.011544789 -0.027900477 0.705462634 -0.072429239 0 0 0 0
9193096 -0.011647608 -0.028240667 0.7054376 -0.073245786 0 0 0 0
9291808 -0.011726087 -0.028549509 0.705153286 -0.074069857 0 0 0 0
9390520 -0.011838067 -0.028852021 0.705088138 -0.074747093 0 0 0 0
9489232 -0.011971562 -0.029167305 0.704828739 -0.075567163 0 0 0 0
9587944 -0.012066704 -0.029524166 0.70477432 -0.076274313 0 0 0 0
9686656 -0.012181501 -0.029804781 0.704572796 -0.077151946 0 0 0 0
9785368 -0.012293714 -0.030102852 0.704428732 -0.077793352 0 0 0 0
9884080 -0.012406037 -0.0304342 0.704342246 -0.078678257 0 0 0 0
9982792 -0.012500099 -0.030727421 0.704029738 -0.079376809 0 0 0 0
10081504 -0.012636524 -0.031079716 0.703892111 -0.080095104 0 0 0 0
10180216 -0.012762748 -0.031366076 0.703899681 -0.080881528 0 0 0 0
10278928 -0.012860976 -0.031673576 0.703619658 -0.081748686 0 0 0 0
10377640 -0.013042743 -0.031975425 0.703575432 -0.082487672 0 0 0 0
10476352 -0.01310754 -0.032264571 0.703252911 -0.083210557 0 0 0 0
10575064 -0.013275133 -0.03258619 0.70326513 -0.084034524 0 0 0 0
10673776 -0.013364436 -0.032864168 0.702965438 -0.084759131 0 0 0 0
10772488 -0.013485073 -0.033213939 0.702933549 -0.085447825 0 0 0 0
10871200 -0.013637605 -0.033464644 0.70274645 -0.086287699 0 0 0 0
10969912 -0.013777351 -0.033819872 0.702653944 -0.087057389 0 0 0 0
11068624 -0.0138999 -0.034099224 0.702498078 -0.08792936 0 0 0 0
11167336 -0.014012881 -0.034437377 0.702220857 -0.088567577 0 0 0 0
11266048 -0.014192324 -0.034726608 0.70223093 -0.08934842 0 0 0 0
11364760 -0.014294377 -0.03499813 0.701910853 -0.09008371 0 0 0 0
11463472 -0.014449768 -0.035346239 0.701867759 -0.090797409 0 0 0 0
11562184 -0.014613355 -0.035642188 0.701772928 -0.091650575 0 0 0 0
11660896 -0.014692857 -0.035940676 0.701500833 -0.092347465 0 0 0 0
11759608 -0.014873406 -0.03626579 0.70143789 -0.093066222 0 0 0 0
11858320 -0.01499857 -0.036524012 0.701231002 -0.093928411 0 0 0 0
11957032 -0.015115821 -0.036844704 0.700935959 -0.094575375 0 0 0 0
12055744 -0.015317578 -0.037142109 0.701025068 -0.095379248 0 0 0 0
12154456 -0.015443149 -0.037440437 0.700715661 -0.096052348 0 0 0 0
12253168 -0.01560572 -0.037743236 0.700708031 -0.096899978 0 0 0 0
12351880 -0.015700053 -0.038040034 0.700407326 -0.097600087 0 0 0 0
12450592 -0.015859192 -0.038344934 0.700357079 -0.098244257 0 0 0 0
12549304 -0.016062524 -0.038643259 0.700252115 -0.099127769 0 0 0 0
12648016 -0.016176227 -0.038933616 0.699998617 -0.099754318 0 0 0 0
12746728 -0.016372025 -0.039252832 0.699986875 -0.100535377 0 0 0 0
12845440 -0.016515469 -0.039545215 0.699847579 -0.101277031 0 0 0 0
12944152 -0.016660526 -0.039815656 0.699628293 -0.102102965 0 0 0 0
13042864 -0.016812045 -0.040123738 0.699356079 -0.102760843 0 0 0 0
13141576 -0.016988018 -0.040438458 0.699355602 -0.103382691 0 0 0 0
13240288 -0.017155667 -0.040701583 0.699200987 -0.10431575 0 0 0 0
13339000 -0.017275348 -0.041034802 0.699082553 -0.104969166 0 0 0 0
13437712 -0.017483109 -0.041332054 0.698926687 -0.105783469 0 0 0 0
13536424 -0.017619965 -0.041595995 0.698638677 -0.106504283 0 0 0 0
13635136 -0.0177979 -0.041926451 0.698654949 -0.107250757 0 0 0 0
13733848 -0.017957041 -0.042204003 0.698496222 -0.108050398 0 0 0 0
13832560 -0.018118161 -0.04247336 0.69820261 -0.108712665 0 0 0 0
13931272 -0.01830638 -0.042761687 0.698046326 -0.109351657 0 0 0 0
14029984 -0.018482092 -0.043066229 0.698095917 -0.110197417 0 0 0 0
14128696 -0.018656902 -0.04330331 0.697773277 -0.111008845 0 0 0 0
14227408 -0.018825527 -0.043631602 0.697717845 -0.111577481 0 0 0 0
14326120 -0.018973369 -0.043895129 0.697621583 -0.11246261 0 0 0 0
14424832 -0.019192036 -0.044218607 0.697429716 -0.113055817 0 0 0 0
14523544 -0.019377633 -0.044491939 0.69734627 -0.113925054 0 0 0 0
14622256 -0.019558716 -0.044800661 0.697065234 -0.114550255 0 0 0 0
14720968 -0.019742641 -0.04508366 0.697089493 -0.115268684 0 0 0 0
14819680 -0.01989589 -0.045335616 0.696853458 -0.116111308 0 0 0 0
14918392 -0.020064368 -0.045630525 0.696581423 -0.11672835 0 0 0 0
15017104 -0.020309697 -0.045926135 0.696700751 -0.11750435 0 0 0 0
15115816 -0.020484264 -0.046232473 0.6963467 -0.11822161 0 0 0 0
15214528 -0.020662434 -0.046494651 0.696341633 -0.1190136 0 0 0 0
15313240 -0.02083533 -0.04675414 0.69611746 -0.119845107 0 0 0 0
15411952 -0.021011339 -0.047095973 0.695901274 -0.120392233 0 0 0 0
15510664 -0.021217627 -0.047371502 0.6958763 -0.12108276 0 0 0 0
15609376 -0.021458039 -0.04761913 0.695730686 -0.122008651 0 0 0 0
15708088 -0.021614992 -0.047913901 0.695564031 -0.122583873 0 0 0 0
15806800 -0.021818153 -0.048187974 0.695515692 -0.123472034 0 0 0 0
15905512 -0.021985458 -0.048484019 0.695195078 -0.124190092 0 0 0 0
16004224 -0.022251088 -0.048756148 0.695197224 -0.124892607 0 0 0 0
16102936 -0.022429576 -0.048986993 0.694936215 -0.12569952 0 0 0 0
16201648 -0.022576194 -0.049338307 0.694899439 -0.126370191 0 0 0 0
16300360 -0.022806292 -0.049551174 0.694669723 -0.127208381 0 0 0 0
16399072 -0.022985627 -0.049857005 0.694515287 -0.127804264 0 0 0 0
16497784 -0.023203618 -0.050149276 0.694444477 -0.128737494 0 0 0 0
16596496 -0.023395875 -0.050445672 0.69417268 -0.129355579 0 0 0 0
16695208 -0.023622615 -0.050701927 0.6941787 -0.13004285 0 0 0 0
16793920 -0.023808285 -0.050928045 0.694003343 -0.130895748 0 0 0 0
16892632 -0.02401548 -0.051247999 0.693822562 -0.131504878 0 0 0 0
16991344 -0.024266388 -0.051479596 0.693783998 -0.13235569 0 0 0 0
17090056 -0.024456968 -0.051737084 0.693603456 -0.133211657 0 0 0 0
17188768 -0.024679215 -0.052002228 0.693346798 -0.133785635 0 0 0 0
17287480 -0.024895474 -0.052304834 0.693401813 -0.134548678 0 0 0 0
17386192 -0.025101862 -0.052564129 0.693178176 -0.135407939 0 0 0 0
17484904 -0.02527935 -0.052822522 0.692943692 -0.13595362 0 0 0 0
17583616 -0.02552627 -0.053080547 0.692989051 -0.136733651 0 0 0 0
17682328 -0.025756413 -0.053333036 0.69267416 -0.137480646 0 0 0 0
17781040 -0.025962969 -0.053626492 0.692631781 -0.138168841 0 0 0 0
17879752 -0.026195781 -0.053885538 0.6924389 -0.139041393 0 0 0 0
17978464 -0.026397552 -0.054146379 0.692235648 -0.139635205 0 0 0 0
18077176 -0.026653736 -0.054377499 0.69220829 -0.140507623 0 0 0 0
18175888 -0.026865387 -0.054669346 0.691794633 -0.14115712 0 0 0 0
18274600 -0.027103934 -0.054946884 0.69168514 -0.14174965 0 0 0 0
18373312 -0.027335686 -0.05516269 0.69150114 -0.142648383 0 0 0 0
18472024 -0.027520466 -0.055452518 0.691130936 -0.143276393 0 0 0 0
18570736 -0.02777745 -0.05572262 0.691016912 -0.143876478 0 0 0 0
18669448 -0.028009405 -0.056000906 0.690887212 -0.144701957 0 0 0 0
18768160 -0.028221394 -0.056232336 0.690492093 -0.145447194 0 0 0 0
18866872 -0.028445905 -0.056533236 0.690355181 -0.146098211 0 0 0 0
18965584 -0.028710724 -0.056776944 0.690129041 -0.146927878 0 0 0 0
19064296 -0.028937688 -0.057017322 0.689757227 -0.147614702 0 0 0 0
19163008 -0.029154581 -0.057330559 0.689679145 -0.148298248 0 0 0 0
19261720 -0.029373776 -0.057531725 0.689332902 -0.149080485 0 0 0 0
19360432 -0.029667014 -0.057806141 0.689171493 -0.149818152 0 0 0 0
19459144 -0.029890784 -0.058051433 0.688865721 -0.15057905 0 0 0 0
19557856 -0.030149338 -0.058312684 0.68858695 -0.1512115 0 0 0 0
19656568 -0.030402326 -0.058569878 0.688326895 -0.152119472 0 0 0 0
19755280 -0.030621919 -0.05885557 0.688129425 -0.152629435 0 0 0 0
19853992 -0.030876392 -0.059062648 0.688070356 -0.153377726 0 0 0 0
19952704 -0.031104223 -0.059332516 0.687707543 -0.154214829 0 0 0 0
20051416 -0.031373448 -0.059572692 0.68749082 -0.154800042 0 0 0 0
20150128 -0.031587239 -0.059813663 0.68733561 -0.155600219 0 0 0 0
20248840 -0.031853973 -0.060051165 0.687058806 -0.156464636 0 0 0 0
20347552 -0.032065432 -0.060303419 0.686841428 -0.1570241 0 0 0 0
20446264 -0.032366696 -0.060520887 0.686654269 -0.157958626 0 0 0 0
20544976 -0.032603885 -0.060779005 0.686307668 -0.15854299 0 0 0 0
20643688 -0.032866884 -0.061024945 0.686223566 -0.159372866 0 0 0 0
20742400 -0.033096361 -0.061261337 0.685946822 -0.160131245 0 0 0 0
20841112 -0.033382389 -0.061493728 0.685718297 -0.160871297 0 0 0 0
20939824 -0.033588867 -0.061733912 0.685398876 -0.161590069 0 0 0 0
21038536 -0.033847842 -0.061976753 0.685212969 -0.162217482 0 0 0 0
21137248 -0.034141663 -0.062208205 0.685051262 -0.163069114 0 0 0 0
21235960 -0.034374579 -0.062424071 0.684687733 -0.163792878 0 0 0 0
21334672 -0.034647613 -0.06265325 0.684609055 -0.164382398 0 0 0 0
21433384 -0.034924801 -0.062865383 0.684319555 -0.165229067 0 0 0 0
21532096 -0.035143729 -0.063130393 0.684067487 -0.165842577 0 0 0 0
21630808 -0.035423126 -0.063344322 0.683911025 -0.166589066 0 0 0 0
21729520 -0.035670854 -0.063591867 0.683653712 -0.167368412 0 0 0 0
21828232 -0.035975892 -0.0638225 0.683477878 -0.16796945 0 0 0 0
21926944 -0.036264132 -0.064044214 0.683294653 -0.168851777 0 0 0 0
22025656 -0.036466386 -0.064239956 0.682872056 -0.169450193 0 0 0 0
22124368 -0.036783862 -0.064504206 0.682810306 -0.170121639 0 0 0 0
22223080 -0.037026502 -0.064738221 0.682553768 -0.170999005 0 0 0 0
22321792 -0.037313554 -0.064960971 0.682256162 -0.171498566 0 0 0 0
22420504 -0.037594888 -0.065193139 0.682128787 -0.172371864 0 0 0 0
22519216 -0.037827432 -0.065405361 0.681766867 -0.17314209 0 0 0 0
22617928 -0.038123209 -0.065590813 0.681653082 -0.173926293 0 0 0 0
22716640 -0.038406081 -0.065838478 0.68132317 -0.17448388 0 0 0 0
22815352 -0.038653697 -0.066077142 0.681284606 -0.175064533 0 0 0 0
22914064 -0.038973402 -0.066276937 0.681020498 -0.175937727 0 0 0 0
23012776 -0.039236664 -0.066480308 0.680694222 -0.176615118 0 0 0 0
23111488 -0.039505731 -0.066733129 0.680594623 -0.177296221 0 0 0 0
23210200 -0.039786037 -0.066941492 0.680298686 -0.178088232 0 0 0 0
23308912 -0.040083758 -0.067163422 0.680033504 -0.17861247 0 0 0 0
23407624 -0.040372252 -0.067385695 0.67994368 -0.179373174 0 0 0 0
23506336 -0.040649127 -0.067583106 0.679657816 -0.180223807 0 0 0 0
23605048 -0.040907073 -0.06782864 0.679456055 -0.180782914 0 0 0 0
23703760 -0.041208583 -0.068010687 0.679170668 -0.181618705 0 0 0 0
23802472 -0.041484002 -0.068270705 0.678895294 -0.182211115 0 0 0 0
23901184 -0.041797224 -0.068459764 0.678844153 -0.183065012 0 0 0 0
23999896 -0.042061213 -0.068689629 0.678489089 -0.183641761 0 0 0 0
24098608 -0.042381465 -0.068896353 0.678396642 -0.184370949 0 0 0 0
24197320 -0.042672898 -0.069077849 0.678096771 -0.185243993 0 0 0 0
24296032 -0.042942859 -0.069338671 0.677858769 -0.18577291 0 0 0 0
24394744 -0.043229576 -0.069539211 0.677653491 -0.18657577 0 0 0 0
24493456 -0.04356176 -0.06977 0.677406609 -0.187287345 0 0 0 0
24592168 -0.043884154 -0.069984897 0.677208483 -0.187975645 0 0 0 0
24690880 -0.044150866 -0.070155113 0.676850378 -0.18876329 0 0 0 0
24789592 -0.04443185 -0.070393629 0.676571667 -0.189353987 0 0 0 0
24888304 -0.044749442 -0.070595182 0.676540851 -0.19013153 0 0 0 0
24987016 -0.045021779 -0.070762664 0.676227629 -0.190860897 0 0 0 0
25085728 -0.045343894 -0.071040488 0.676101565 -0.191583693 0 0 0 0
25184440 -0.045623108 -0.071223378 0.675760865 -0.192294284 0 0 0 0
25283152 -0.045947309 -0.071399241 0.675628662 -0.192965671 0 0 0 0
25381864 -0.0462531 -0.071595698 0.675338923 -0.193804711 0 0 0 0
25480576 -0.04654555 -0.071815751 0.675127387 -0.194434598 0 0 0 0
25579288 -0.046855829 -0.0720326 0.674883365 -0.195310667 0 0 0 0
25678000 -0.047163076 -0.072221197 0.674678981 -0.195942834 0 0 0 0
25776712 -0.04748376 -0.072413317 0.674371004 -0.19677107 0 0 0 0
25875424 -0.047737795 -0.07264617 0.674178242 -0.197344973 0 0 0 0
25974136 -0.048124089 -0.072790868 0.674056529 -0.198154658 0 0 0 0
26072848 -0.048380989 -0.073007479 0.673693001 -0.198958486 0 0 0 0
26171560 -0.04871647 -0.073212876 0.673367321 -0.199546113 0 0 0 0
26270272 -0.049013875 -0.073421634 0.673302948 -0.200245961 0 0 0 0
26368984 -0.049340523 -0.07355947 0.673075616 -0.201232835 0 0 0 0
26467696 -0.04962559 -0.073782153 0.672647058 -0.201869145 0 0 0 0
26566408 -0.049960486 -0.073955886 0.672594964 -0.202498838 0 0 0 0
26665120 -0.050250012 -0.074156694 0.672353088 -0.203460931 0 0 0 0
26763832 -0.050560235 -0.074336126 0.672171771 -0.204048514 0 0 0 0
26862544 -0.050910286 -0.074531257 0.672001063 -0.204901382 0 0 0 0
26961256 -0.05121601 -0.074667841 0.671576857 -0.205659836 0 0 0 0
27059968 -0.051541883 -0.074895486 0.671497702 -0.206262454 0 0 0 0
27158680 -0.051854111 -0.075031541 0.671181797 -0.20716007 0 0 0 0
27257392 -0.052170939 -0.075213514 0.670689642 -0.207875788 0 0 0 0
27356104 -0.052475642 -0.075439319 0.670482277 -0.208546489 0 0 0 0
27454816 -0.052814271 -0.075572595 0.670137941 -0.20936352 0 0 0 0
27553528 -0.053104713 -0.075720153 0.669719457 -0.20997031 0 0 0 0
27652240 -0.053449515 -0.07591708 0.669536828 -0.210642933 0 0 0 0
27750952 -0.053795147 -0.076036296 0.669180512 -0.211481556 0 0 0 0
27849664 -0.054067794 -0.076222792 0.668723464 -0.212125375 0 0 0 0
27948376 -0.054401181 -0.076373837 0.668530046 -0.212731555 0 0 0 0
28047088 -0.054752536 -0.076516032 0.668235421 -0.213587597 0 0 0 0
28145800 -0.055022101 -0.076708316 0.667846918 -0.214226379 0 0 0 0
28244512 -0.055391941 -0.07687962 0.667730867 -0.21488285 0 0 0 0
28343224 -0.055680789 -0.077036373 0.667274773 -0.215780735 0 0 0 0
28441936 -0.05600157 -0.077203407 0.666916131 -0.216287955 0 0 0 0
28540648 -0.05632659 -0.077362261 0.666734218 -0.216986417 0 0 0 0
28639360 -0.056680932 -0.077511109 0.666387975 -0.21783936 0 0 0 0
28738072 -0.05700358 -0.077657774 0.665928661 -0.21849659 0 0 0 0
28836784 -0.057332947 -0.077798634 0.665756464 -0.219066426 0 0 0 0
28935496 -0.057675059 -0.077947303 0.665556073 -0.219933867 0 0 0 0
29034208 -0.057978816 -0.078097939 0.665038108 -0.220531776 0 0 0 0
29132920 -0.058322045 -0.078246861 0.664859235 -0.221091061 0 0 0 0
29231632 -0.058670327 -0.078375689 0.664587855 -0.221947014 0 0 0 0
29330344 -0.058974854 -0.078530952 0.664139509 -0.222624257 0 0 0 0
29429056 -0.059333596 -0.078677311 0.663788795 -0.223408326 0 0 0 0
29527768 -0.059646192 -0.07886558 0.663575112 -0.223802253 0 0 0 0
29626480 -0.060002524 -0.078978493 0.663317918 -0.224695146 0 0 0 0
29725192 -0.06032693 -0.079149708 0.662984251 -0.225249409 0 0 0 0
29823904 -0.060709174 -0.079279027 0.662822365 -0.226029485 0 0 0 0
